# i2cdetect
```bash
bash-5.1# i2cdetect --help
Usage: i2cdetect [-y] [-a] [-q|-r] I2CBUS [FIRST LAST]
       i2cdetect -F I2CBUS
       i2cdetect -l
  I2CBUS is an integer or an I2C bus name
  If provided, FIRST and LAST limit the probing range.
```

## 参数解析

### 检测所有 I2C 设备

```bash
i2cdetect -y 1
```
- `-y`: 自动确认所有提示并不询问用户。
- `1`: I2C 总线编号。指定要检测的 I2C 总线编号。

### 限制探测范围

```bash
i2cdetect -y 1 0x10 0x20
```
- `-y`: 自动确认所有提示并不询问用户。
- `1`: I2C 总线编号。
- `0x10`: 起始地址。
- `0x20`: 结束地址。限制探测范围在指定的 I2C 地址之间。

### 显示 I2C 总线功能

```bash
i2cdetect -F 1
```
- `-F`: 显示指定 I2C 总线的功能。
- `1`: I2C 总线编号。

### 列出所有 I2C 总线

```bash
i2cdetect -l
```
- `-l`: 列出系统中所有的 I2C 总线及其信息。

### 使用其他选项

#### 只显示地址

```bash
i2cdetect -a 1
```
- `-a`: 仅显示探测到的设备地址，不显示其他信息（如设备类型等）。

#### 静默模式

```bash
i2cdetect -q 1
```
- `-q`: 静默模式，减少输出信息，仅显示探测到的地址。

#### 详细模式

```bash
i2cdetect -r 1
```
- `-r`: 详细模式，显示更多探测过程中的详细信息。

## 综合应用

### 检测 I2C 总线上的所有设备

```bash
i2cdetect -y 1
```
- **描述**: 自动检测 I2C 总线 1 上的所有设备，不会提示用户确认。

### 检测指定范围内的 I2C 设备

```bash
i2cdetect -y 1 0x30 0x40
```
- **描述**: 自动检测 I2C 总线 1 上从地址 0x30 到 0x40 范围内的所有设备。

### 显示 I2C 总线的功能

```bash
i2cdetect -F 1
```
- **描述**: 显示 I2C 总线 1 的功能列表，用于了解该总线支持哪些操作。

### 列出系统中的所有 I2C 总线

```bash
i2cdetect -l
```
- **描述**: 列出系统中所有 I2C 总线及其信息，帮助识别系统上配置的所有 I2C 总线。

### 仅显示探测到的地址

```bash
i2cdetect -a 1
```
- **描述**: 仅显示 I2C 总线 1 上探测到的设备地址。

### 静默模式下检测 I2C 设备

```bash
i2cdetect -q 1
```
- **描述**: 在 I2C 总线 1 上进行静默模式的设备检测，仅显示探测到的地址。

### 详细模式下检测 I2C 设备

```bash
i2cdetect -r 1
```
- **描述**: 在 I2C 总线 1 上进行详细模式的设备检测，显示更多探测过程中的详细信息。

# i2cdump
```bash
bash-5.1# i2cdump --help
Usage: i2cdump [-f] [-y] [-r first-last] [-a] I2CBUS ADDRESS [MODE [BANK [BANKREG]]]
  I2CBUS is an integer or an I2C bus name
  ADDRESS is an integer (0x08 - 0x77, or 0x00 - 0x7f if -a is given)
  MODE is one of:
    b (byte, default)
    w (word)
    W (word on even register addresses)
    s (SMBus block, deprecated)
    i (I2C block)
    c (consecutive byte)
    Append p for SMBus PEC
```

好的，以下是去掉“描述: ”文字后的内容：

## 参数解析

### 显示指定 I2C 地址的内容（字节模式）

```bash
i2cdump -y 1 0x50
```
- `-y`: 自动确认所有提示，不提示用户确认。
- `1`: I2C 总线编号。
- `0x50`: 设备地址，范围在 0x08 到 0x77 之间（默认）。
- `b`: 以字节模式显示内容（默认模式）。

### 显示指定 I2C 地址的内容（字）

```bash
i2cdump -y 1 0x50 w
```
- `-y`: 自动确认所有提示，不提示用户确认。
- `1`: I2C 总线编号。
- `0x50`: 设备地址。
- `w`: 以字模式显示内容。

### 显示指定 I2C 地址的内容（SMBus 块模式）

```bash
i2cdump -y 1 0x50 s
```
- `-y`: 自动确认所有提示，不提示用户确认。
- `1`: I2C 总线编号。
- `0x50`: 设备地址。
- `s`: 使用 SMBus 块模式显示内容（已过时）。

### 显示指定 I2C 地址的内容（I2C 块模式）

```bash
i2cdump -y 1 0x50 i
```
- `-y`: 自动确认所有提示，不提示用户确认。
- `1`: I2C 总线编号。
- `0x50`: 设备地址。
- `i`: 使用 I2C 块模式显示内容。

### 显示指定 I2C 地址的内容（连续字节模式）

```bash
i2cdump -y 1 0x50 c
```
- `-y`: 自动确认所有提示，不提示用户确认。
- `1`: I2C 总线编号。
- `0x50`: 设备地址。
- `c`: 以连续字节模式显示内容。

### 启用 SMBus PEC（附加）

```bash
i2cdump -y 1 0x50 b -p
```
- `-y`: 自动确认所有提示，不提示用户确认。
- `1`: I2C 总线编号。
- `0x50`: 设备地址。
- `b`: 以字节模式显示内容。
- `-p`: 启用 SMBus PEC（Packet Error Code）。

### 显示指定范围内的 I2C 地址内容

```bash
i2cdump -y 1 0x50 -r 0-15
```
- `-y`: 自动确认所有提示，不提示用户确认。
- `1`: I2C 总线编号。
- `0x50`: 设备地址。
- `-r 0-15`: 显示从地址 0 到 15 的内容范围。

### 使用指定设备和模式

```bash
i2cdump -D /dev/i2c-1 0x50 b
```
- `-D`: 使用指定的设备。
- `/dev/i2c-1`: 设备文件路径。
- `0x50`: 设备地址。
- `b`: 以字节模式显示内容。

## 综合应用

### 显示 I2C 设备内容（字节模式）

```bash
i2cdump -y 1 0x50 b
```

### 显示 I2C 设备内容（字模式）

```bash
i2cdump -y 1 0x50 w
```

### 显示 I2C 设备内容（SMBus 块模式）

```bash
i2cdump -y 1 0x50 s
```

### 显示 I2C 设备内容（I2C 块模式）

```bash
i2cdump -y 1 0x50 i
```

### 显示 I2C 设备内容（连续字节模式）

```bash
i2cdump -y 1 0x50 c
```

### 启用 SMBus PEC 并显示内容

```bash
i2cdump -y 1 0x50 b -p
```

### 显示 I2C 地址范围的内容

```bash
i2cdump -y 1 0x50 -r 0-15
```

### 使用指定设备和模式显示内容

```bash
i2cdump -D /dev/i2c-1 0x50 b
```


# i2cget
```bash
bash-5.1# i2cget --help
Usage: i2cget [-f] [-y] [-a] I2CBUS CHIP-ADDRESS [DATA-ADDRESS [MODE [LENGTH]]]
  I2CBUS is an integer or an I2C bus name
  ADDRESS is an integer (0x08 - 0x77, or 0x00 - 0x7f if -a is given)
  MODE is one of:
    b (read byte data, default)
    w (read word data)
    c (write byte/read byte)
    s (read SMBus block data)
    i (read I2C block data)
    Append p for SMBus PEC
  LENGTH is the I2C block data length (between 1 and 32, default 32)
```

## 参数解析

### 从指定地址读取字节数据

```bash
i2cget -y 1 0x50 0x10 b
```
- `-y`: 自动确认所有提示，不提示用户确认。
- `1`: I2C 总线编号。
- `0x50`: 设备地址，范围在 0x08 到 0x77 之间（默认）。
- `0x10`: 数据地址。
- `b`: 以字节模式读取数据（默认）。

### 从指定地址读取字数据

```bash
i2cget -y 1 0x50 0x10 w
```
- `-y`: 自动确认所有提示，不提示用户确认。
- `1`: I2C 总线编号。
- `0x50`: 设备地址。
- `0x10`: 数据地址。
- `w`: 以字模式读取数据。

### 从指定地址读取 SMBus 块数据

```bash
i2cget -y 1 0x50 0x10 s
```
- `-y`: 自动确认所有提示，不提示用户确认。
- `1`: I2C 总线编号。
- `0x50`: 设备地址。
- `0x10`: 数据地址。
- `s`: 使用 SMBus 块模式读取数据。

### 从指定地址读取 I2C 块数据

```bash
i2cget -y 1 0x50 0x10 i
```
- `-y`: 自动确认所有提示，不提示用户确认。
- `1`: I2C 总线编号。
- `0x50`: 设备地址。
- `0x10`: 数据地址。
- `i`: 使用 I2C 块模式读取数据。

### 启用 SMBus PEC 并读取数据

```bash
i2cget -y 1 0x50 0x10 b -p
```
- `-y`: 自动确认所有提示，不提示用户确认。
- `1`: I2C 总线编号。
- `0x50`: 设备地址。
- `0x10`: 数据地址。
- `b`: 以字节模式读取数据。
- `-p`: 启用 SMBus PEC（Packet Error Code）。

### 读取指定长度的 I2C 块数据

```bash
i2cget -y 1 0x50 0x10 i 16
```
- `-y`: 自动确认所有提示，不提示用户确认。
- `1`: I2C 总线编号。
- `0x50`: 设备地址。
- `0x10`: 数据地址。
- `i`: 使用 I2C 块模式读取数据。
- `16`: 读取 16 字节的数据。

## 综合应用

### 从 I2C 设备读取字节数据

```bash
i2cget -y 1 0x50 0x10 b
```

### 从 I2C 设备读取字数据

```bash
i2cget -y 1 0x50 0x10 w
```

### 从 I2C 设备读取 SMBus 块数据

```bash
i2cget -y 1 0x50 0x10 s
```

### 从 I2C 设备读取 I2C 块数据

```bash
i2cget -y 1 0x50 0x10 i
```

### 启用 SMBus PEC 并读取字节数据

```bash
i2cget -y 1 0x50 0x10 b -p
```

### 读取 I2C 设备指定长度的数据

```bash
i2cget -y 1 0x50 0x10 i 16
```

# i2cset
```bash
bash-5.1# i2cset --help
Usage: i2cset [-f] [-y] [-m MASK] [-r] [-a] I2CBUS CHIP-ADDRESS DATA-ADDRESS [VALUE] ... [MODE]
  I2CBUS is an integer or an I2C bus name
  ADDRESS is an integer (0x08 - 0x77, or 0x00 - 0x7f if -a is given)
  MODE is one of:
    c (byte, no value)
    b (byte data, default)
    w (word data)
    i (I2C block data)
    s (SMBus block data)
    Append p for SMBus PEC
```

## 参数解析

### 设置 I2C 设备的寄存器值

```bash
i2cset -y 1 0x50 0x10 0x20 b
```
- `-f`: 强制执行操作，即使操作会导致潜在的破坏。
- `-y`: 自动确认所有提示，不提示用户确认。
- `1`: I2C 总线编号。
- `0x50`: 设备地址，范围在 0x08 到 0x77 之间（默认）。
- `0x10`: 数据地址。
- `0x20`: 要写入的数据值。
- `b`: 以字节模式写入数据（默认）。

### 使用 I2C 模式写入数据

```bash
i2cset -y 1 0x50 0x10 0x20 w
```
- `-f`: 强制执行操作。
- `-y`: 自动确认所有提示。
- `1`: I2C 总线编号。
- `0x50`: 设备地址。
- `0x10`: 数据地址。
- `0x20`: 要写入的数据值。
- `w`: 以字模式写入数据。

### 使用 SMBus 块模式写入数据

```bash
i2cset -y 1 0x50 0x10 0x20 s
```
- `-f`: 强制执行操作。
- `-y`: 自动确认所有提示。
- `1`: I2C 总线编号。
- `0x50`: 设备地址。
- `0x10`: 数据地址。
- `0x20`: 要写入的数据值。
- `s`: 使用 SMBus 块模式写入数据。

### 使用 I2C 块模式写入数据

```bash
i2cset -y 1 0x50 0x10 0x20 i
```
- `-f`: 强制执行操作。
- `-y`: 自动确认所有提示。
- `1`: I2C 总线编号。
- `0x50`: 设备地址。
- `0x10`: 数据地址。
- `0x20`: 要写入的数据值。
- `i`: 使用 I2C 块模式写入数据。

### 启用 SMBus PEC 并写入数据

```bash
i2cset -y 1 0x50 0x10 0x20 b -p
```
- `-f`: 强制执行操作。
- `-y`: 自动确认所有提示。
- `1`: I2C 总线编号。
- `0x50`: 设备地址。
- `0x10`: 数据地址。
- `0x20`: 要写入的数据值。
- `b`: 以字节模式写入数据。
- `-p`: 启用 SMBus PEC（Packet Error Code）。

## 综合应用

### 设置 I2C 设备的寄存器值为字节数据

```bash
i2cset -y 1 0x50 0x10 0x20 b
```

### 设置 I2C 设备的寄存器值为字数据

```bash
i2cset -y 1 0x50 0x10 0x20 w
```

### 使用 SMBus 块模式写入数据到 I2C 设备

```bash
i2cset -y 1 0x50 0x10 0x20 s
```

### 使用 I2C 块模式写入数据到 I2C 设备

```bash
i2cset -y 1 0x50 0x10 0x20 i
```

### 启用 SMBus PEC 并写入字节数据到 I2C 设备

```bash
i2cset -y 1 0x50 0x10 0x20 b -p
```

# i2ctransfer
```bash
bash-5.1# i2ctransfer --help
Usage: i2ctransfer [-f] [-y] [-v] [-V] [-a] I2CBUS DESC [DATA] [DESC [DATA]]...
  I2CBUS is an integer or an I2C bus name
  DESC describes the transfer in the form: {r|w}LENGTH[@address]
    1) read/write-flag 2) LENGTH (range 0-65535, or '?')
    3) I2C address (use last one if omitted)
  DATA are LENGTH bytes for a write message. They can be shortened by a suffix:
    = (keep value constant until LENGTH)
    + (increase value by 1 until LENGTH)
    - (decrease value by 1 until LENGTH)
    p (use pseudo random generator until LENGTH with value as seed)

Example (bus 0, read 8 byte at offset 0x64 from EEPROM at 0x50):
  # i2ctransfer 0 w1@0x50 0x64 r8
Example (same EEPROM, at offset 0x42 write 0xff 0xfe ... 0xf0):
  # i2ctransfer 0 w17@0x50 0x42 0xff-
```

## 参数解析

### 执行 I2C 传输操作

```bash
i2ctransfer -y 0 w1@0x50 0x64 r8
```
- `-f`: 强制执行操作，即使会有潜在的破坏。
- `-y`: 自动确认所有提示。
- `-v`: 显示详细输出。
- `-V`: 显示版本信息。
- `-a`: 使用 7 位地址模式。
- `0`: I2C 总线编号。
- `w1@0x50`: 写操作，长度为 1 字节，I2C 地址为 0x50。
- `0x64`: 写入的数据，表示数据地址。
- `r8`: 读操作，读取 8 字节数据。

### 执行 I2C 传输操作并写入一系列数据

```bash
i2ctransfer -y 0 w17@0x50 0x42 0xff-
```
- `-f`: 强制执行操作。
- `-y`: 自动确认所有提示。
- `-v`: 显示详细输出。
- `-V`: 显示版本信息。
- `-a`: 使用 7 位地址模式。
- `0`: I2C 总线编号。
- `w17@0x50`: 写操作，长度为 17 字节，I2C 地址为 0x50。
- `0x42`: 写入的数据地址。
- `0xff-`: 写入从 0xff 开始递减的值，直到达到指定长度。

### 使用不同的数据模式进行 I2C 传输

```bash
i2ctransfer -y 0 w8@0x50 0x00 0x01+0x07
```
- `-f`: 强制执行操作。
- `-y`: 自动确认所有提示。
- `-v`: 显示详细输出。
- `-V`: 显示版本信息。
- `-a`: 使用 7 位地址模式。
- `0`: I2C 总线编号。
- `w8@0x50`: 写操作，长度为 8 字节，I2C 地址为 0x50。
- `0x00`: 写入的数据地址。
- `0x01+0x07`: 写入数据从 0x01 开始，递增 直到达到 8 字节长度。

## 综合应用

### 从 EEPROM 读取数据

```bash
i2ctransfer -y 0 w1@0x50 0x64 r8
```
在总线 0 上，向 I2C 地址为 0x50 的 EEPROM 写入 0x64 作为数据地址，然后读取 8 字节的数据。

### 向 EEPROM 写入数据

```bash
i2ctransfer -y 0 w17@0x50 0x42 0xff-
```
在总线 0 上，向 I2C 地址为 0x50 的 EEPROM 写入从地址 0x42 开始的 17 字节数据，从 0xff 开始递减。

### 使用递增模式写入数据

```bash
i2ctransfer -y 0 w8@0x50 0x00 0x01+0x07
```
在总线 0 上，向 I2C 地址为 0x50 的设备写入从 0x00 地址开始的 8 字节数据，从 0x01 开始递增。

# i2c-stub-from-dump


